T31E0 000:014.766   SEGGER J-Link V7.96h Log File
T31E0 000:015.648   DLL Compiled: May 15 2024 15:33:59
T31E0 000:015.661   Logging started @ 2024-06-08 08:55
T31E0 000:015.673   Process: C:\Keil_v5\UV4\UV4.exe
T31E0 000:015.926 - 15.684ms
T31E0 000:016.225 JLINK_SetWarnOutHandler(...)
T31E0 000:016.261 - 0.283ms
T31E0 000:016.280 JLINK_OpenEx(...)
T31E0 000:023.437   Firmware: J-Link V9 compiled May  7 2021 16:26:12
T31E0 000:026.141   Firmware: J-Link V9 compiled May  7 2021 16:26:12
T31E0 000:027.008   Decompressing FW timestamp took 514 us
T31E0 000:036.537   Hardware: V9.30
T31E0 000:036.610   S/N: 269306871
T31E0 000:036.638   OEM: SEGGER-EDU
T31E0 000:036.665   Feature(s): FlashBP, GDB
T31E0 000:042.001   Bootloader: (Could not read)
T31E0 000:044.754   TELNET listener socket opened on port 19021
T31E0 000:045.194   WEBSRV WEBSRV_Init(): Starting webserver thread(s)
T31E0 000:045.652   WEBSRV Webserver running on local port 19080
T31E0 000:045.976   Looking for J-Link GUI Server exe at: C:\Keil_v5\ARM\Segger\JLinkGUIServer.exe
T31E0 000:046.251   Looking for J-Link GUI Server exe at: C:\Program Files\SEGGER\JLink_V796h\JLinkGUIServer.exe
T31E0 000:046.338   Forking J-Link GUI Server: C:\Program Files\SEGGER\JLink_V796h\JLinkGUIServer.exe
T31E0 000:098.856   J-Link GUI Server info: "J-Link GUI server V7.96h "
T31E0 000:101.421 - 84.884ms returns "O.K."
T31E0 000:101.478 JLINK_GetEmuCaps()
T31E0 000:101.499 - 0.016ms returns 0xB9FF7BBF
T31E0 000:101.521 JLINK_TIF_GetAvailable(...)
T31E0 000:102.014 - 0.494ms
T31E0 000:102.060 JLINK_SetErrorOutHandler(...)
T31E0 000:102.076 - 0.016ms
T31E0 000:102.463 JLINK_ExecCommand("ProjectFile = "C:\Users\rodri\Documents\ENSSAT\1A\MICRO\Projet_Micro IMR1\Project\JLinkSettings.ini"", ...). 
T31E0 000:132.508   Ref file found at: C:\Keil_v5\ARM\Segger\JLinkDevices.ref
T31E0 000:132.719   REF file references invalid XML file: C:\Program Files\SEGGER\JLink_V796h\JLinkDevices.xml
T31E0 000:134.769 - 32.309ms returns 0x00
T31E0 000:137.293 JLINK_ExecCommand("Device = LPC1768", ...). 
T31E0 000:142.942   Device "LPC1768" selected.
T31E0 000:143.779 - 6.447ms returns 0x00
T31E0 000:143.801 JLINK_ExecCommand("DisableConnectionTimeout", ...). 
T31E0 000:143.817 - 0.002ms returns 0x01
T31E0 000:143.831 JLINK_GetHardwareVersion()
T31E0 000:143.842 - 0.011ms returns 93000
T31E0 000:143.856 JLINK_GetDLLVersion()
T31E0 000:143.867 - 0.011ms returns 79608
T31E0 000:143.879 JLINK_GetOEMString(...)
T31E0 000:149.482 JLINK_GetDLLVersion()
T31E0 000:149.516 - 0.034ms returns 79608
T31E0 000:149.528 JLINK_GetCompileDateTime()
T31E0 000:149.538 - 0.010ms
T31E0 000:151.199 JLINK_GetFirmwareString(...)
T31E0 000:151.238 - 0.040ms
T31E0 000:152.812 JLINK_GetHardwareVersion()
T31E0 000:152.840 - 0.027ms returns 93000
T31E0 000:154.295 JLINK_GetSN()
T31E0 000:154.323 - 0.028ms returns 269306871
T31E0 000:155.804 JLINK_GetOEMString(...)
T31E0 000:160.638 JLINK_TIF_Select(JLINKARM_TIF_JTAG)
T31E0 000:162.774 - 2.135ms returns 0x00
T31E0 000:162.812 JLINK_HasError()
T31E0 000:162.833 JLINK_SetSpeed(5000)
T31E0 000:163.063 - 0.231ms
T31E0 000:163.107 JLINK_GetIdData(pIdData)
T31E0 000:166.552   TotalIRLen = 4, IRPrint = 0x01
T31E0 000:168.722   JTAG chain detection found 1 devices:
T31E0 000:170.259    #0 Id: 0x4BA00477, IRLen: 04, CoreSight JTAG-DP
T31E0 000:174.640   DPv0 detected
T31E0 000:176.609   Scanning AP map to find all available APs
T31E0 000:179.407   AP[1]: Stopped AP scan as end of AP map has been reached
T31E0 000:181.188   AP[0]: AHB-AP (IDR: 0x24770011)
T31E0 000:182.834   Iterating through AP map to find AHB-AP to use
T31E0 000:185.437   AP[0]: Core found
T31E0 000:186.986   AP[0]: AHB-AP ROM base: 0xE00FF000
T31E0 000:189.120   CPUID register: 0x412FC230. Implementer code: 0x41 (ARM)
T31E0 000:190.987   Found Cortex-M3 r2p0, Little endian.
T31E0 000:191.637   -- Max. mem block: 0x00010E60
T31E0 000:192.904   CPU_ReadMem(4 bytes @ 0xE000EDF0)
T31E0 000:193.322   CPU_WriteMem(4 bytes @ 0xE000EDF0)
T31E0 000:193.700   CPU_ReadMem(4 bytes @ 0xE0002000)
T31E0 000:196.125   FPUnit: 6 code (BP) slots and 2 literal slots
T31E0 000:196.168   CPU_ReadMem(4 bytes @ 0xE000EDFC)
T31E0 000:196.608   CPU_WriteMem(4 bytes @ 0xE000EDFC)
T31E0 000:196.991   CPU_ReadMem(4 bytes @ 0xE0001000)
T31E0 000:197.366   CPU_WriteMem(4 bytes @ 0xE0001000)
T31E0 000:197.713   CPU_ReadMem(4 bytes @ 0xE000ED88)
T31E0 000:198.128   CPU_WriteMem(4 bytes @ 0xE000ED88)
T31E0 000:198.496   CPU_ReadMem(4 bytes @ 0xE000ED88)
T31E0 000:198.885   CPU_WriteMem(4 bytes @ 0xE000ED88)
T31E0 000:200.942   CoreSight components:
T31E0 000:202.724   ROMTbl[0] @ E00FF000
T31E0 000:202.765   CPU_ReadMem(64 bytes @ 0xE00FF000)
T31E0 000:203.414   CPU_ReadMem(32 bytes @ 0xE000EFE0)
T31E0 000:205.538   [0][0]: E000E000 CID B105E00D PID 002BB000 SCS
T31E0 000:205.577   CPU_ReadMem(32 bytes @ 0xE0001FE0)
T31E0 000:208.411   [0][1]: E0001000 CID B105E00D PID 002BB002 DWT
T31E0 000:208.452   CPU_ReadMem(32 bytes @ 0xE0002FE0)
T31E0 000:210.710   [0][2]: E0002000 CID B105E00D PID 002BB003 FPB
T31E0 000:210.773   CPU_ReadMem(32 bytes @ 0xE0000FE0)
T31E0 000:213.008   [0][3]: E0000000 CID B105E00D PID 002BB001 ITM
T31E0 000:213.047   CPU_ReadMem(32 bytes @ 0xE0040FE0)
T31E0 000:215.216   [0][4]: E0040000 CID B105900D PID 002BB923 TPIU-Lite
T31E0 000:215.257   CPU_ReadMem(32 bytes @ 0xE0041FE0)
T31E0 000:217.395   [0][5]: E0041000 CID B105900D PID 002BB924 ETM-M3
T31E0 000:217.640   pIdData->ScanLen=4
T31E0 000:217.661   pIdData->NumDevices=1
T31E0 000:217.676   pIdData->aId[0]=0x4BA00477
T31E0 000:217.690   pIdData->aIrRead[0]=0
T31E0 000:217.704   pIdData->aScanLen[0]=0
T31E0 000:217.718   pIdData->aScanRead[0]=0
T31E0 000:217.734 - 54.626ms
T31E0 000:217.758 JLINK_JTAG_GetDeviceID(DeviceIndex = 0)
T31E0 000:217.774 - 0.016ms returns 1268778103
T31E0 000:217.849 JLINK_JTAG_GetDeviceInfo(DeviceIndex = 0)
T31E0 000:217.865 - 0.016ms returns 0
T31E0 000:217.879 JLINK_GetDLLVersion()
T31E0 000:217.889 - 0.010ms returns 79608
T31E0 000:217.900 JLINK_CORE_GetFound()
T31E0 000:217.910 - 0.010ms returns 0x30000FF
T31E0 000:217.923 JLINK_GetDebugInfo(0x100 = JLINKARM_ROM_TABLE_ADDR_INDEX)
T31E0 000:217.936   Value=0xE00FF000
T31E0 000:217.950 - 0.029ms returns 0
T31E0 000:219.565 JLINK_GetDebugInfo(0x100 = JLINKARM_ROM_TABLE_ADDR_INDEX)
T31E0 000:219.593   Value=0xE00FF000
T31E0 000:219.608 - 0.043ms returns 0
T31E0 000:219.620 JLINK_GetDebugInfo(0x101 = JLINKARM_DEBUG_INFO_ETM_ADDR_INDEX)
T31E0 000:219.630   Value=0xE0041000
T31E0 000:219.644 - 0.024ms returns 0
T31E0 000:219.656 JLINK_ReadMemEx(0xE0041FD0, 0x20 Bytes, Flags = 0x02000004)
T31E0 000:219.810   CPU_ReadMem(32 bytes @ 0xE0041FD0)
T31E0 000:220.376   Data:  04 00 00 00 00 00 00 00 00 00 00 00 00 00 00 00 ...
T31E0 000:220.408 - 0.751ms returns 32 (0x20)
T31E0 000:220.422 JLINK_GetDebugInfo(0x102 = JLINKARM_DEBUG_INFO_MTB_ADDR_INDEX)
T31E0 000:220.432   Value=0x00000000
T31E0 000:220.447 - 0.025ms returns 0
T31E0 000:220.458 JLINK_GetDebugInfo(0x103 = JLINKARM_DEBUG_INFO_TPIU_ADDR_INDEX)
T31E0 000:220.468   Value=0xE0040000
T31E0 000:220.482 - 0.024ms returns 0
T31E0 000:220.493 JLINK_GetDebugInfo(0x104 = JLINKARM_DEBUG_INFO_ITM_ADDR_INDEX)
T31E0 000:220.504   Value=0xE0000000
T31E0 000:220.521 - 0.028ms returns 0
T31E0 000:220.532 JLINK_GetDebugInfo(0x105 = JLINKARM_DEBUG_INFO_DWT_ADDR_INDEX)
T31E0 000:220.541   Value=0xE0001000
T31E0 000:220.556 - 0.024ms returns 0
T31E0 000:220.567 JLINK_GetDebugInfo(0x106 = JLINKARM_DEBUG_INFO_FPB_ADDR_INDEX)
T31E0 000:220.576   Value=0xE0002000
T31E0 000:220.590 - 0.024ms returns 0
T31E0 000:220.601 JLINK_GetDebugInfo(0x107 = JLINKARM_DEBUG_INFO_NVIC_ADDR_INDEX)
T31E0 000:220.611   Value=0xE000E000
T31E0 000:220.625 - 0.024ms returns 0
T31E0 000:220.636 JLINK_GetDebugInfo(0x10C = JLINKARM_DEBUG_INFO_DBG_ADDR_INDEX)
T31E0 000:220.646   Value=0xE000EDF0
T31E0 000:220.666 - 0.030ms returns 0
T31E0 000:220.677 JLINK_GetDebugInfo(0x01 = Unknown)
T31E0 000:220.687   Value=0x00000000
T31E0 000:220.701 - 0.024ms returns 0
T31E0 000:220.712 JLINK_ReadMemU32(0xE000ED00, 0x1 Items)
T31E0 000:220.731   CPU_ReadMem(4 bytes @ 0xE000ED00)
T31E0 000:221.145   Data:  30 C2 2F 41
T31E0 000:221.171   Debug reg: CPUID
T31E0 000:221.186 - 0.473ms returns 1 (0x1)
T31E0 000:221.200 JLINK_GetDebugInfo(0x10F = JLINKARM_DEBUG_INFO_HAS_CORTEX_M_SECURITY_EXT_INDEX)
T31E0 000:221.210   Value=0x00000000
T31E0 000:221.224 - 0.024ms returns 0
T31E0 000:221.236 JLINK_HasError()
T31E0 000:221.248 JLINK_SetResetType(JLINKARM_CM3_RESET_TYPE_NORMAL)
T31E0 000:221.259 - 0.010ms returns ???
T31E0 000:221.270 JLINK_Reset()
T31E0 000:221.289   CPU is running
T31E0 000:221.304   CPU_WriteMem(4 bytes @ 0xE000EDF0)
T31E0 000:221.740   CPU is running
T31E0 000:221.775   CPU_WriteMem(4 bytes @ 0xE000EDFC)
T31E0 000:224.903   Reset: Halt core after reset via DEMCR.VC_CORERESET.
T31E0 000:226.774   Reset: Reset device via AIRCR.SYSRESETREQ.
T31E0 000:226.874   CPU is running
T31E0 000:226.893   CPU_WriteMem(4 bytes @ 0xE000ED0C)
T31E0 000:279.182   CPU_ReadMem(4 bytes @ 0xE000EDF0)
T31E0 000:279.923   CPU_ReadMem(4 bytes @ 0xE000EDF0)
T31E0 000:283.414   CPU_WriteMem(4 bytes @ 0xE000EDFC)
T31E0 000:290.029   CPU_ReadMem(4 bytes @ 0xE000EDF0)
T31E0 000:293.725   CPU_WriteMem(4 bytes @ 0xE000EDFC)
T31E0 000:294.690   CPU_WriteMem(4 bytes @ 0xE0001028)
T31E0 000:295.668   CPU_WriteMem(4 bytes @ 0xE0001038)
T31E0 000:296.497   CPU_WriteMem(4 bytes @ 0xE0001048)
T31E0 000:297.371   CPU_WriteMem(4 bytes @ 0xE0001058)
T31E0 000:298.157   CPU_WriteMem(4 bytes @ 0xE000EDFC)
T31E0 000:299.053   CPU_WriteMem(4 bytes @ 0xE0001028)
T31E0 000:299.778   CPU_WriteMem(4 bytes @ 0xE0001028)
T31E0 000:300.543   CPU_WriteMem(4 bytes @ 0xE000EDFC)
T31E0 000:301.407   CPU_WriteMem(4 bytes @ 0xE0001028)
T31E0 000:302.244   CPU_WriteMem(4 bytes @ 0xE0001028)
T31E0 000:303.308   CPU_WriteMem(4 bytes @ 0xE000EDFC)
T31E0 000:304.022   CPU_WriteMem(4 bytes @ 0xE0001028)
T31E0 000:304.740   CPU_WriteMem(4 bytes @ 0xE0001028)
T31E0 000:305.504   CPU_WriteMem(4 bytes @ 0xE000EDFC)
T31E0 000:306.374   CPU_WriteMem(4 bytes @ 0xE0001028)
T31E0 000:307.276   CPU_WriteMem(4 bytes @ 0xE0001028)
T31E0 000:308.059   CPU_WriteMem(4 bytes @ 0xE000EDFC)
T31E0 000:308.822   CPU_WriteMem(4 bytes @ 0xE0001050)
T31E0 000:309.581   CPU_WriteMem(4 bytes @ 0xE0001054)
T31E0 000:310.256   CPU_WriteMem(4 bytes @ 0xE0001058)
T31E0 000:311.676   CPU_ReadMem(4 bytes @ 0xE0001000)
T31E0 000:416.744   CPU_WriteMem(4 bytes @ 0xE000EDFC)
T31E0 000:417.507   CPU_WriteMem(4 bytes @ 0xE0001058)
T31E0 000:418.441   CPU_ReadMem(4 bytes @ 0x00000004)
T31E0 000:419.238   CPU_ReadMem(4 bytes @ 0xE0002000)
T31E0 000:420.158   CPU_ReadMem(4 bytes @ 0xE0002008)
T31E0 000:420.775   CPU_ReadMem(4 bytes @ 0xE000200C)
T31E0 000:421.391   CPU_ReadMem(4 bytes @ 0xE0002010)
T31E0 000:421.954   CPU_ReadMem(4 bytes @ 0xE0002014)
T31E0 000:422.558   CPU_ReadMem(4 bytes @ 0xE0002018)
T31E0 000:423.134   CPU_ReadMem(4 bytes @ 0xE000201C)
T31E0 000:423.752   CPU_WriteMem(4 bytes @ 0xE0002000)
T31E0 000:424.443   CPU_WriteMem(4 bytes @ 0xE0002008)
T31E0 000:425.126   CPU_WriteMem(4 bytes @ 0xE000200C)
T31E0 000:425.985   CPU_WriteMem(4 bytes @ 0xE0002010)
T31E0 000:426.814   CPU_WriteMem(4 bytes @ 0xE0002014)
T31E0 000:427.715   CPU_WriteMem(4 bytes @ 0xE0002018)
T31E0 000:428.474   CPU_WriteMem(4 bytes @ 0xE000201C)
T31E0 000:429.225   CPU_ReadMem(4 bytes @ 0xE0001000)
T31E0 000:534.295   CPU_ReadMem(4 bytes @ 0x400FC040)
T31E0 000:535.114   CPU_WriteMem(4 bytes @ 0xE0002000)
T31E0 000:535.749   CPU_WriteMem(4 bytes @ 0xE0002008)
T31E0 000:536.510   CPU_WriteMem(4 bytes @ 0xE000200C)
T31E0 000:537.115   CPU_WriteMem(4 bytes @ 0xE0002010)
T31E0 000:537.723   CPU_WriteMem(4 bytes @ 0xE0002014)
T31E0 000:538.379   CPU_WriteMem(4 bytes @ 0xE0002018)
T31E0 000:539.011   CPU_WriteMem(4 bytes @ 0xE000201C)
T31E0 000:539.843   CPU_WriteMem(4 bytes @ 0xE0002000)
T31E0 000:540.587   CPU_ReadMem(4 bytes @ 0xE000EDFC)
T31E0 000:541.382   CPU_ReadMem(4 bytes @ 0xE0001000)
T31E0 000:543.073 - 321.799ms
T31E0 000:543.241 JLINK_Halt()
T31E0 000:543.303 - 0.061ms returns 0x00
T31E0 000:543.357 JLINK_ReadMemU32(0xE000EDF0, 0x1 Items)
T31E0 000:543.430   CPU_ReadMem(4 bytes @ 0xE000EDF0)
T31E0 000:544.309   Data:  03 00 03 00
T31E0 000:544.420   Debug reg: DHCSR
T31E0 000:544.461 - 1.104ms returns 1 (0x1)
T31E0 000:544.518 JLINK_WriteU32_64(0xE000EDF0, 0xA05F0003)
T31E0 000:544.559   Debug reg: DHCSR
T31E0 000:545.586   CPU_WriteMem(4 bytes @ 0xE000EDF0)
T31E0 000:546.414 - 1.895ms returns 0 (0x00000000)
T31E0 000:546.510 JLINK_WriteU32_64(0xE000EDFC, 0x01000000)
T31E0 000:546.544   Debug reg: DEMCR
T31E0 000:546.604   CPU_WriteMem(4 bytes @ 0xE000EDFC)
T31E0 000:547.296 - 0.785ms returns 0 (0x00000000)
T31E0 000:557.694 JLINK_GetHWStatus(...)
T31E0 000:558.171 - 0.476ms returns 0
T31E0 000:563.404 JLINK_GetNumBPUnits(Type = 0xFFFFFF00)
T31E0 000:563.441 - 0.036ms returns 0x06
T31E0 000:563.454 JLINK_GetNumBPUnits(Type = 0xF0)
T31E0 000:563.465 - 0.011ms returns 0x2000
T31E0 000:563.478 JLINK_GetNumWPUnits()
T31E0 000:563.489 - 0.011ms returns 4
T31E0 000:568.997 JLINK_GetSpeed()
T31E0 000:569.040 - 0.042ms returns 5000
T31E0 000:573.311 JLINK_ReadMemU32(0xE000E004, 0x1 Items)
T31E0 000:573.364   CPU_ReadMem(4 bytes @ 0xE000E004)
T31E0 000:573.853   Data:  01 00 00 00
T31E0 000:573.894 - 0.583ms returns 1 (0x1)
T31E0 000:573.910 JLINK_ReadMemU32(0xE000E004, 0x1 Items)
T31E0 000:573.927   CPU_ReadMem(4 bytes @ 0xE000E004)
T31E0 000:574.387   Data:  01 00 00 00
T31E0 000:574.427 - 0.516ms returns 1 (0x1)
T31E0 000:574.443 JLINK_WriteMemEx(0xE0001000, 0x0000001C Bytes, Flags = 0x02000004)
T31E0 000:574.455   Data:  01 00 00 00 00 00 00 00 00 00 00 00 00 00 00 00 ...
T31E0 000:574.480   CPU_WriteMem(28 bytes @ 0xE0001000)
T31E0 000:575.173 - 0.729ms returns 0x1C
T31E0 000:575.215 JLINK_Halt()
T31E0 000:575.226 - 0.011ms returns 0x00
T31E0 000:575.238 JLINK_IsHalted()
T31E0 000:575.251   CPU_ReadMem(4 bytes @ 0x400FC040)
T31E0 000:575.873 - 0.634ms returns TRUE
T31E0 000:589.090 JLINK_WriteMem(0x10000000, 0x1E4 Bytes, ...)
T31E0 000:589.137   Data:  00 BE 0A E0 0D 78 2D 06 68 40 08 24 40 00 00 D3 ...
T31E0 000:589.730   CPU_WriteMem(484 bytes @ 0x10000000)
T31E0 000:593.579 - 4.489ms returns 0x1E4
T31E0 000:593.761 JLINK_HasError()
T31E0 000:593.796 JLINK_WriteReg(R0, 0x00000000)
T31E0 000:593.818 - 0.034ms returns 0
T31E0 000:593.836 JLINK_WriteReg(R1, 0x00B71B00)
T31E0 000:593.851 - 0.015ms returns 0
T31E0 000:593.868 JLINK_WriteReg(R2, 0x00000001)
T31E0 000:593.883 - 0.015ms returns 0
T31E0 000:593.900 JLINK_WriteReg(R3, 0x00000000)
T31E0 000:593.915 - 0.015ms returns 0
T31E0 000:593.932 JLINK_WriteReg(R4, 0x00000000)
T31E0 000:593.947 - 0.015ms returns 0
T31E0 000:593.963 JLINK_WriteReg(R5, 0x00000000)
T31E0 000:593.979 - 0.016ms returns 0
T31E0 000:593.997 JLINK_WriteReg(R6, 0x00000000)
T31E0 000:594.013 - 0.016ms returns 0
T31E0 000:594.030 JLINK_WriteReg(R7, 0x00000000)
T31E0 000:594.046 - 0.016ms returns 0
T31E0 000:594.064 JLINK_WriteReg(R8, 0x00000000)
T31E0 000:594.080 - 0.016ms returns 0
T31E0 000:594.098 JLINK_WriteReg(R9, 0x100001DC)
T31E0 000:594.114 - 0.015ms returns 0
T31E0 000:594.131 JLINK_WriteReg(R10, 0x00000000)
T31E0 000:594.153 - 0.021ms returns 0
T31E0 000:594.175 JLINK_WriteReg(R11, 0x00000000)
T31E0 000:594.192 - 0.016ms returns 0
T31E0 000:594.209 JLINK_WriteReg(R12, 0x00000000)
T31E0 000:594.226 - 0.016ms returns 0
T31E0 000:594.243 JLINK_WriteReg(R13 (SP), 0x10000800)
T31E0 000:594.261 - 0.017ms returns 0
T31E0 000:594.278 JLINK_WriteReg(R14, 0x10000001)
T31E0 000:594.294 - 0.016ms returns 0
T31E0 000:594.677 JLINK_WriteReg(R15 (PC), 0x10000044)
T31E0 000:594.739 - 0.426ms returns 0
T31E0 000:594.763 JLINK_WriteReg(XPSR, 0x01000000)
T31E0 000:594.780 - 0.017ms returns 0
T31E0 000:594.798 JLINK_WriteReg(MSP, 0x10000800)
T31E0 000:594.814 - 0.016ms returns 0
T31E0 000:594.831 JLINK_WriteReg(PSP, 0x10000800)
T31E0 000:594.847 - 0.016ms returns 0
T31E0 000:594.865 JLINK_WriteReg(CFBP, 0x00000000)
T31E0 000:594.881 - 0.016ms returns 0
T31E0 000:594.982 JLINK_SetBPEx(Addr = 0x10000000, Type = 0xFFFFFFF2)
T31E0 000:595.008 - 0.027ms returns 0x00000001
T31E0 000:595.026 JLINK_Go()
T31E0 000:595.064   CPU_ReadMem(4 bytes @ 0xE0001000)
T31E0 000:595.640   CPU_WriteMem(4 bytes @ 0xE0002008)
T31E0 000:595.705   CPU_WriteMem(4 bytes @ 0xE000200C)
T31E0 000:595.729   CPU_WriteMem(4 bytes @ 0xE0002010)
T31E0 000:595.753   CPU_WriteMem(4 bytes @ 0xE0002014)
T31E0 000:595.776   CPU_WriteMem(4 bytes @ 0xE0002018)
T31E0 000:595.800   CPU_WriteMem(4 bytes @ 0xE000201C)
T31E0 000:597.166   CPU_WriteMem(4 bytes @ 0xE0001004)
T31E0 000:604.114   Memory map 'after startup completion point' is active
T31E0 000:604.182 - 9.154ms
T31E0 000:604.218 JLINK_IsHalted()
T31E0 000:606.683 - 2.464ms returns TRUE
T31E0 000:606.745 JLINK_ReadReg(R15 (PC))
T31E0 000:606.771 - 0.025ms returns 0x10000000
T31E0 000:606.861 JLINK_ClrBPEx(BPHandle = 0x00000001)
T31E0 000:606.883 - 0.021ms returns 0x00
T31E0 000:606.900 JLINK_ReadReg(R0)
T31E0 000:606.915 - 0.014ms returns 0x00000000
T31E0 000:607.499 JLINK_HasError()
T31E0 000:607.537 JLINK_WriteReg(R0, 0x00000000)
T31E0 000:607.557 - 0.019ms returns 0
T31E0 000:607.575 JLINK_WriteReg(R1, 0x00B71B00)
T31E0 000:607.591 - 0.016ms returns 0
T31E0 000:607.609 JLINK_WriteReg(R2, 0x00000001)
T31E0 000:607.625 - 0.016ms returns 0
T31E0 000:607.642 JLINK_WriteReg(R3, 0x00000000)
T31E0 000:607.659 - 0.016ms returns 0
T31E0 000:607.676 JLINK_WriteReg(R4, 0x00000000)
T31E0 000:607.694 - 0.017ms returns 0
T31E0 000:607.717 JLINK_WriteReg(R5, 0x00000000)
T31E0 000:607.792 - 0.074ms returns 0
T31E0 000:607.819 JLINK_WriteReg(R6, 0x00000000)
T31E0 000:607.836 - 0.016ms returns 0
T31E0 000:607.853 JLINK_WriteReg(R7, 0x00000000)
T31E0 000:607.869 - 0.016ms returns 0
T31E0 000:607.887 JLINK_WriteReg(R8, 0x00000000)
T31E0 000:607.903 - 0.015ms returns 0
T31E0 000:607.920 JLINK_WriteReg(R9, 0x100001DC)
T31E0 000:607.936 - 0.016ms returns 0
T31E0 000:607.954 JLINK_WriteReg(R10, 0x00000000)
T31E0 000:607.970 - 0.016ms returns 0
T31E0 000:607.987 JLINK_WriteReg(R11, 0x00000000)
T31E0 000:608.003 - 0.016ms returns 0
T31E0 000:608.019 JLINK_WriteReg(R12, 0x00000000)
T31E0 000:608.034 - 0.014ms returns 0
T31E0 000:608.051 JLINK_WriteReg(R13 (SP), 0x10000800)
T31E0 000:608.066 - 0.015ms returns 0
T31E0 000:608.083 JLINK_WriteReg(R14, 0x10000001)
T31E0 000:608.098 - 0.014ms returns 0
T31E0 000:608.114 JLINK_WriteReg(R15 (PC), 0x100000D0)
T31E0 000:608.129 - 0.015ms returns 0
T31E0 000:608.146 JLINK_WriteReg(XPSR, 0x01000000)
T31E0 000:608.161 - 0.015ms returns 0
T31E0 000:608.177 JLINK_WriteReg(MSP, 0x10000800)
T31E0 000:608.192 - 0.015ms returns 0
T31E0 000:608.208 JLINK_WriteReg(PSP, 0x10000800)
T31E0 000:608.224 - 0.015ms returns 0
T31E0 000:608.240 JLINK_WriteReg(CFBP, 0x00000000)
T31E0 000:608.255 - 0.015ms returns 0
T31E0 000:608.273 JLINK_SetBPEx(Addr = 0x10000000, Type = 0xFFFFFFF2)
T31E0 000:608.291 - 0.018ms returns 0x00000002
T31E0 000:608.307 JLINK_Go()
T31E0 000:608.335   CPU_ReadMem(4 bytes @ 0xE0001000)
T31E0 000:611.552 - 3.244ms
T31E0 000:611.608 JLINK_IsHalted()
T31E0 000:612.293 - 0.684ms returns FALSE
T31E0 000:612.348 JLINK_HasError()
T31E0 000:628.972 JLINK_IsHalted()
T31E0 000:629.520 - 0.547ms returns FALSE
T31E0 000:629.557 JLINK_HasError()
T31E0 000:631.677 JLINK_IsHalted()
T31E0 000:632.109 - 0.431ms returns FALSE
T31E0 000:632.149 JLINK_HasError()
T31E0 000:633.504 JLINK_IsHalted()
T31E0 000:634.070 - 0.564ms returns FALSE
T31E0 000:634.115 JLINK_HasError()
T31E0 000:635.524 JLINK_IsHalted()
T31E0 000:636.089 - 0.563ms returns FALSE
T31E0 000:636.169 JLINK_HasError()
T31E0 000:638.152 JLINK_IsHalted()
T31E0 000:638.716 - 0.563ms returns FALSE
T31E0 000:638.763 JLINK_HasError()
T31E0 000:640.326 JLINK_IsHalted()
T31E0 000:641.013 - 0.685ms returns FALSE
T31E0 000:641.070 JLINK_HasError()
T31E0 000:642.338 JLINK_IsHalted()
T31E0 000:643.064 - 0.725ms returns FALSE
T31E0 000:643.122 JLINK_HasError()
T31E0 000:644.490 JLINK_IsHalted()
T31E0 000:645.054 - 0.563ms returns FALSE
T31E0 000:645.130 JLINK_HasError()
T31E0 000:647.324 JLINK_IsHalted()
T31E0 000:647.972 - 0.646ms returns FALSE
T31E0 000:648.030 JLINK_HasError()
T31E0 000:649.852 JLINK_IsHalted()
T31E0 000:650.527 - 0.674ms returns FALSE
T31E0 000:650.592 JLINK_HasError()
T31E0 000:651.971 JLINK_IsHalted()
T31E0 000:652.647 - 0.674ms returns FALSE
T31E0 000:652.718 JLINK_HasError()
T31E0 000:654.851 JLINK_IsHalted()
T31E0 000:655.585 - 0.732ms returns FALSE
T31E0 000:655.661 JLINK_HasError()
T31E0 000:656.863 JLINK_IsHalted()
T31E0 000:657.574 - 0.709ms returns FALSE
T31E0 000:657.685 JLINK_HasError()
T31E0 000:658.959 JLINK_IsHalted()
T31E0 000:659.752 - 0.790ms returns FALSE
T31E0 000:659.838 JLINK_HasError()
T31E0 000:661.896 JLINK_IsHalted()
T31E0 000:662.802 - 0.904ms returns FALSE
T31E0 000:662.897 JLINK_HasError()
T31E0 000:664.866 JLINK_IsHalted()
T31E0 000:665.728 - 0.860ms returns FALSE
T31E0 000:665.922 JLINK_HasError()
T31E0 000:667.745 JLINK_IsHalted()
T31E0 000:668.632 - 0.885ms returns FALSE
T31E0 000:668.727 JLINK_HasError()
T31E0 000:670.634 JLINK_IsHalted()
T31E0 000:671.634 - 0.998ms returns FALSE
T31E0 000:671.744 JLINK_HasError()
T31E0 000:673.650 JLINK_IsHalted()
T31E0 000:674.612 - 0.959ms returns FALSE
T31E0 000:674.721 JLINK_HasError()
T31E0 000:676.528 JLINK_IsHalted()
T31E0 000:677.388 - 0.858ms returns FALSE
T31E0 000:677.471 JLINK_HasError()
T31E0 000:679.493 JLINK_IsHalted()
T31E0 000:680.339 - 0.843ms returns FALSE
T31E0 000:680.430 JLINK_HasError()
T31E0 000:682.489 JLINK_IsHalted()
T31E0 000:683.439 - 0.948ms returns FALSE
T31E0 000:683.549 JLINK_HasError()
T31E0 000:685.517 JLINK_IsHalted()
T31E0 000:686.706 - 1.188ms returns FALSE
T31E0 000:686.828 JLINK_HasError()
T31E0 000:688.676 JLINK_IsHalted()
T31E0 000:689.865 - 1.188ms returns FALSE
T31E0 000:689.953 JLINK_HasError()
T31E0 000:691.483 JLINK_IsHalted()
T31E0 000:692.384 - 0.899ms returns FALSE
T31E0 000:692.451 JLINK_HasError()
T31E0 000:694.195 JLINK_IsHalted()
T31E0 000:695.177 - 0.979ms returns FALSE
T31E0 000:695.276 JLINK_HasError()
T31E0 000:697.165 JLINK_IsHalted()
T31E0 000:697.935 - 0.768ms returns FALSE
T31E0 000:698.022 JLINK_HasError()
T31E0 000:699.988 JLINK_IsHalted()
T31E0 000:700.957 - 0.966ms returns FALSE
T31E0 000:701.065 JLINK_HasError()
T31E0 000:703.106 JLINK_IsHalted()
T31E0 000:703.821 - 0.713ms returns FALSE
T31E0 000:703.899 JLINK_HasError()
T31E0 000:705.885 JLINK_IsHalted()
T31E0 000:707.766 - 1.878ms returns FALSE
T31E0 000:707.886 JLINK_HasError()
T31E0 000:711.897 JLINK_IsHalted()
T31E0 000:712.634 - 0.737ms returns FALSE
T31E0 000:712.716 JLINK_HasError()
T31E0 000:713.918 JLINK_IsHalted()
T31E0 000:714.562 - 0.643ms returns FALSE
T31E0 000:714.633 JLINK_HasError()
T31E0 000:716.642 JLINK_IsHalted()
T31E0 000:719.684 - 3.039ms returns TRUE
T31E0 000:719.797 JLINK_ReadReg(R15 (PC))
T31E0 000:719.837 - 0.039ms returns 0x10000000
T31E0 000:719.871 JLINK_ClrBPEx(BPHandle = 0x00000002)
T31E0 000:719.903 - 0.032ms returns 0x00
T31E0 000:719.936 JLINK_ReadReg(R0)
T31E0 000:719.965 - 0.029ms returns 0x00000000
T31E0 000:773.711 JLINK_HasError()
T31E0 000:773.821 JLINK_WriteReg(R0, 0x00000001)
T31E0 000:773.846 - 0.025ms returns 0
T31E0 000:773.865 JLINK_WriteReg(R1, 0x00B71B00)
T31E0 000:773.881 - 0.016ms returns 0
T31E0 000:773.899 JLINK_WriteReg(R2, 0x00000001)
T31E0 000:773.915 - 0.016ms returns 0
T31E0 000:773.933 JLINK_WriteReg(R3, 0x00000000)
T31E0 000:773.949 - 0.016ms returns 0
T31E0 000:773.967 JLINK_WriteReg(R4, 0x00000000)
T31E0 000:773.983 - 0.016ms returns 0
T31E0 000:774.004 JLINK_WriteReg(R5, 0x00000000)
T31E0 000:774.025 - 0.021ms returns 0
T31E0 000:774.061 JLINK_WriteReg(R6, 0x00000000)
T31E0 000:774.078 - 0.016ms returns 0
T31E0 000:774.095 JLINK_WriteReg(R7, 0x00000000)
T31E0 000:774.111 - 0.016ms returns 0
T31E0 000:774.129 JLINK_WriteReg(R8, 0x00000000)
T31E0 000:774.151 - 0.022ms returns 0
T31E0 000:774.177 JLINK_WriteReg(R9, 0x100001DC)
T31E0 000:774.192 - 0.015ms returns 0
T31E0 000:774.216 JLINK_WriteReg(R10, 0x00000000)
T31E0 000:774.237 - 0.021ms returns 0
T31E0 000:774.254 JLINK_WriteReg(R11, 0x00000000)
T31E0 000:774.269 - 0.015ms returns 0
T31E0 000:774.285 JLINK_WriteReg(R12, 0x00000000)
T31E0 000:774.300 - 0.015ms returns 0
T31E0 000:774.317 JLINK_WriteReg(R13 (SP), 0x10000800)
T31E0 000:774.333 - 0.016ms returns 0
T31E0 000:774.350 JLINK_WriteReg(R14, 0x10000001)
T31E0 000:774.365 - 0.015ms returns 0
T31E0 000:774.381 JLINK_WriteReg(R15 (PC), 0x100000CC)
T31E0 000:774.397 - 0.015ms returns 0
T31E0 000:774.413 JLINK_WriteReg(XPSR, 0x01000000)
T31E0 000:774.429 - 0.015ms returns 0
T31E0 000:774.445 JLINK_WriteReg(MSP, 0x10000800)
T31E0 000:774.460 - 0.014ms returns 0
T31E0 000:774.477 JLINK_WriteReg(PSP, 0x10000800)
T31E0 000:774.492 - 0.015ms returns 0
T31E0 000:774.508 JLINK_WriteReg(CFBP, 0x00000000)
T31E0 000:774.523 - 0.015ms returns 0
T31E0 000:774.542 JLINK_SetBPEx(Addr = 0x10000000, Type = 0xFFFFFFF2)
T31E0 000:774.563 - 0.022ms returns 0x00000003
T31E0 000:774.581 JLINK_Go()
T31E0 000:774.620   CPU_ReadMem(4 bytes @ 0xE0001000)
T31E0 000:778.009 - 3.426ms
T31E0 000:778.116 JLINK_IsHalted()
T31E0 000:780.603 - 2.486ms returns TRUE
T31E0 000:780.658 JLINK_ReadReg(R15 (PC))
T31E0 000:780.681 - 0.022ms returns 0x10000000
T31E0 000:780.699 JLINK_ClrBPEx(BPHandle = 0x00000003)
T31E0 000:780.716 - 0.016ms returns 0x00
T31E0 000:780.733 JLINK_ReadReg(R0)
T31E0 000:780.749 - 0.015ms returns 0x00000000
T31E0 000:787.228 JLINK_WriteMem(0x10000000, 0x1E4 Bytes, ...)
T31E0 000:787.253   Data:  00 BE 0A E0 0D 78 2D 06 68 40 08 24 40 00 00 D3 ...
T31E0 000:787.285   CPU_WriteMem(484 bytes @ 0x10000000)
T31E0 000:790.821 - 3.593ms returns 0x1E4
T31E0 000:790.941 JLINK_HasError()
T31E0 000:790.960 JLINK_WriteReg(R0, 0x00000000)
T31E0 000:790.979 - 0.018ms returns 0
T31E0 000:790.994 JLINK_WriteReg(R1, 0x00B71B00)
T31E0 000:791.008 - 0.014ms returns 0
T31E0 000:791.023 JLINK_WriteReg(R2, 0x00000002)
T31E0 000:791.037 - 0.013ms returns 0
T31E0 000:791.051 JLINK_WriteReg(R3, 0x00000000)
T31E0 000:791.065 - 0.013ms returns 0
T31E0 000:791.080 JLINK_WriteReg(R4, 0x00000000)
T31E0 000:791.093 - 0.013ms returns 0
T31E0 000:791.108 JLINK_WriteReg(R5, 0x00000000)
T31E0 000:791.121 - 0.013ms returns 0
T31E0 000:791.136 JLINK_WriteReg(R6, 0x00000000)
T31E0 000:791.149 - 0.013ms returns 0
T31E0 000:791.164 JLINK_WriteReg(R7, 0x00000000)
T31E0 000:791.177 - 0.013ms returns 0
T31E0 000:791.192 JLINK_WriteReg(R8, 0x00000000)
T31E0 000:791.206 - 0.013ms returns 0
T31E0 000:791.221 JLINK_WriteReg(R9, 0x100001DC)
T31E0 000:791.235 - 0.014ms returns 0
T31E0 000:791.251 JLINK_WriteReg(R10, 0x00000000)
T31E0 000:791.265 - 0.014ms returns 0
T31E0 000:791.281 JLINK_WriteReg(R11, 0x00000000)
T31E0 000:791.295 - 0.014ms returns 0
T31E0 000:791.311 JLINK_WriteReg(R12, 0x00000000)
T31E0 000:791.340 - 0.029ms returns 0
T31E0 000:791.359 JLINK_WriteReg(R13 (SP), 0x10000800)
T31E0 000:791.375 - 0.015ms returns 0
T31E0 000:791.390 JLINK_WriteReg(R14, 0x10000001)
T31E0 000:791.405 - 0.014ms returns 0
T31E0 000:791.420 JLINK_WriteReg(R15 (PC), 0x10000044)
T31E0 000:791.435 - 0.014ms returns 0
T31E0 000:791.450 JLINK_WriteReg(XPSR, 0x01000000)
T31E0 000:791.465 - 0.014ms returns 0
T31E0 000:791.481 JLINK_WriteReg(MSP, 0x10000800)
T31E0 000:791.504 - 0.023ms returns 0
T31E0 000:791.522 JLINK_WriteReg(PSP, 0x10000800)
T31E0 000:791.536 - 0.014ms returns 0
T31E0 000:791.552 JLINK_WriteReg(CFBP, 0x00000000)
T31E0 000:791.566 - 0.014ms returns 0
T31E0 000:791.583 JLINK_SetBPEx(Addr = 0x10000000, Type = 0xFFFFFFF2)
T31E0 000:791.599 - 0.017ms returns 0x00000004
T31E0 000:791.615 JLINK_Go()
T31E0 000:791.640   CPU_ReadMem(4 bytes @ 0xE0001000)
T31E0 000:794.739 - 3.122ms
T31E0 000:794.794 JLINK_IsHalted()
T31E0 000:797.399 - 2.604ms returns TRUE
T31E0 000:797.461 JLINK_ReadReg(R15 (PC))
T31E0 000:797.483 - 0.021ms returns 0x10000000
T31E0 000:797.503 JLINK_ClrBPEx(BPHandle = 0x00000004)
T31E0 000:797.522 - 0.018ms returns 0x00
T31E0 000:797.541 JLINK_ReadReg(R0)
T31E0 000:797.566 - 0.025ms returns 0x00000000
T31E0 000:798.166 JLINK_WriteMem(0x10000204, 0x1FC Bytes, ...)
T31E0 000:798.209   Data:  00 02 00 10 79 01 00 00 81 01 00 00 83 01 00 00 ...
T31E0 000:798.251   CPU_WriteMem(508 bytes @ 0x10000204)
T31E0 000:801.944 - 3.778ms returns 0x1FC
T31E0 000:802.004 JLINK_WriteMem(0x10000400, 0x204 Bytes, ...)
T31E0 000:802.021   Data:  AC 31 38 4B 1B 1D 1B 68 02 FA 01 F4 23 43 36 4C ...
T31E0 000:802.060   CPU_WriteMem(516 bytes @ 0x10000400)
T31E0 000:806.382 - 4.376ms returns 0x204
T31E0 000:806.495 JLINK_HasError()
T31E0 000:806.523 JLINK_WriteReg(R0, 0x00000000)
T31E0 000:806.554 - 0.031ms returns 0
T31E0 000:806.579 JLINK_WriteReg(R1, 0x00000400)
T31E0 000:806.601 - 0.022ms returns 0
T31E0 000:806.625 JLINK_WriteReg(R2, 0x10000204)
T31E0 000:806.646 - 0.021ms returns 0
T31E0 000:806.669 JLINK_WriteReg(R3, 0x00000000)
T31E0 000:806.691 - 0.021ms returns 0
T31E0 000:806.723 JLINK_WriteReg(R4, 0x00000000)
T31E0 000:806.752 - 0.029ms returns 0
T31E0 000:806.779 JLINK_WriteReg(R5, 0x00000000)
T31E0 000:806.801 - 0.021ms returns 0
T31E0 000:806.824 JLINK_WriteReg(R6, 0x00000000)
T31E0 000:806.846 - 0.021ms returns 0
T31E0 000:806.869 JLINK_WriteReg(R7, 0x00000000)
T31E0 000:806.890 - 0.021ms returns 0
T31E0 000:806.913 JLINK_WriteReg(R8, 0x00000000)
T31E0 000:806.934 - 0.021ms returns 0
T31E0 000:806.958 JLINK_WriteReg(R9, 0x100001DC)
T31E0 000:806.979 - 0.021ms returns 0
T31E0 000:807.002 JLINK_WriteReg(R10, 0x00000000)
T31E0 000:807.024 - 0.022ms returns 0
T31E0 000:807.048 JLINK_WriteReg(R11, 0x00000000)
T31E0 000:807.071 - 0.023ms returns 0
T31E0 000:807.117 JLINK_WriteReg(R12, 0x00000000)
T31E0 000:807.141 - 0.025ms returns 0
T31E0 000:807.167 JLINK_WriteReg(R13 (SP), 0x10000800)
T31E0 000:807.192 - 0.025ms returns 0
T31E0 000:807.217 JLINK_WriteReg(R14, 0x10000001)
T31E0 000:807.241 - 0.023ms returns 0
T31E0 000:807.266 JLINK_WriteReg(R15 (PC), 0x10000156)
T31E0 000:807.289 - 0.023ms returns 0
T31E0 000:807.315 JLINK_WriteReg(XPSR, 0x01000000)
T31E0 000:807.338 - 0.023ms returns 0
T31E0 000:807.364 JLINK_WriteReg(MSP, 0x10000800)
T31E0 000:807.387 - 0.023ms returns 0
T31E0 000:807.413 JLINK_WriteReg(PSP, 0x10000800)
T31E0 000:807.436 - 0.023ms returns 0
T31E0 000:807.462 JLINK_WriteReg(CFBP, 0x00000000)
T31E0 000:807.485 - 0.023ms returns 0
T31E0 000:807.512 JLINK_SetBPEx(Addr = 0x10000000, Type = 0xFFFFFFF2)
T31E0 000:807.540 - 0.029ms returns 0x00000005
T31E0 000:807.566 JLINK_Go()
T31E0 000:807.610   CPU_ReadMem(4 bytes @ 0xE0001000)
T31E0 000:811.194 - 3.626ms
T31E0 000:811.319 JLINK_IsHalted()
T31E0 000:811.835 - 0.514ms returns FALSE
T31E0 000:811.889 JLINK_HasError()
T31E0 000:822.496 JLINK_IsHalted()
T31E0 000:825.207 - 2.711ms returns TRUE
T31E0 000:825.260 JLINK_ReadReg(R15 (PC))
T31E0 000:825.280 - 0.020ms returns 0x10000000
T31E0 000:825.297 JLINK_ClrBPEx(BPHandle = 0x00000005)
T31E0 000:825.313 - 0.016ms returns 0x00
T31E0 000:825.330 JLINK_ReadReg(R0)
T31E0 000:825.352 - 0.022ms returns 0x00000000
T31E0 000:826.314 JLINK_WriteMem(0x10000204, 0x1FC Bytes, ...)
T31E0 000:826.352   Data:  C0 B2 40 1C 59 49 B1 FB F0 F0 57 49 08 60 0B E0 ...
T31E0 000:826.390   CPU_WriteMem(508 bytes @ 0x10000204)
T31E0 000:830.508 - 4.132ms returns 0x1FC
T31E0 000:830.573 JLINK_WriteMem(0x10000400, 0x204 Bytes, ...)
T31E0 000:830.592   Data:  0C E0 E0 48 20 30 09 E0 DE 48 40 30 06 E0 DD 48 ...
T31E0 000:830.632   CPU_WriteMem(516 bytes @ 0x10000400)
T31E0 000:834.914 - 4.339ms returns 0x204
T31E0 000:834.993 JLINK_HasError()
T31E0 000:835.020 JLINK_WriteReg(R0, 0x00000400)
T31E0 000:835.047 - 0.028ms returns 0
T31E0 000:835.070 JLINK_WriteReg(R1, 0x00000400)
T31E0 000:835.090 - 0.020ms returns 0
T31E0 000:835.112 JLINK_WriteReg(R2, 0x10000204)
T31E0 000:835.132 - 0.020ms returns 0
T31E0 000:835.154 JLINK_WriteReg(R3, 0x00000000)
T31E0 000:835.174 - 0.020ms returns 0
T31E0 000:835.195 JLINK_WriteReg(R4, 0x00000000)
T31E0 000:835.215 - 0.019ms returns 0
T31E0 000:835.240 JLINK_WriteReg(R5, 0x00000000)
T31E0 000:835.396 - 0.156ms returns 0
T31E0 000:835.428 JLINK_WriteReg(R6, 0x00000000)
T31E0 000:835.446 - 0.018ms returns 0
T31E0 000:835.466 JLINK_WriteReg(R7, 0x00000000)
T31E0 000:835.485 - 0.018ms returns 0
T31E0 000:835.505 JLINK_WriteReg(R8, 0x00000000)
T31E0 000:835.523 - 0.018ms returns 0
T31E0 000:835.543 JLINK_WriteReg(R9, 0x100001DC)
T31E0 000:835.562 - 0.018ms returns 0
T31E0 000:835.582 JLINK_WriteReg(R10, 0x00000000)
T31E0 000:835.601 - 0.018ms returns 0
T31E0 000:835.621 JLINK_WriteReg(R11, 0x00000000)
T31E0 000:835.639 - 0.018ms returns 0
T31E0 000:835.659 JLINK_WriteReg(R12, 0x00000000)
T31E0 000:835.686 - 0.027ms returns 0
T31E0 000:835.710 JLINK_WriteReg(R13 (SP), 0x10000800)
T31E0 000:835.730 - 0.020ms returns 0
T31E0 000:835.750 JLINK_WriteReg(R14, 0x10000001)
T31E0 000:835.768 - 0.018ms returns 0
T31E0 000:835.788 JLINK_WriteReg(R15 (PC), 0x10000156)
T31E0 000:835.807 - 0.018ms returns 0
T31E0 000:835.827 JLINK_WriteReg(XPSR, 0x01000000)
T31E0 000:835.846 - 0.019ms returns 0
T31E0 000:835.866 JLINK_WriteReg(MSP, 0x10000800)
T31E0 000:835.884 - 0.018ms returns 0
T31E0 000:835.904 JLINK_WriteReg(PSP, 0x10000800)
T31E0 000:835.922 - 0.018ms returns 0
T31E0 000:835.942 JLINK_WriteReg(CFBP, 0x00000000)
T31E0 000:835.960 - 0.018ms returns 0
T31E0 000:835.982 JLINK_SetBPEx(Addr = 0x10000000, Type = 0xFFFFFFF2)
T31E0 000:836.004 - 0.023ms returns 0x00000006
T31E0 000:836.025 JLINK_Go()
T31E0 000:836.059   CPU_ReadMem(4 bytes @ 0xE0001000)
T31E0 000:839.613 - 3.586ms
T31E0 000:839.798 JLINK_IsHalted()
T31E0 000:840.646 - 0.845ms returns FALSE
T31E0 000:840.740 JLINK_HasError()
T31E0 000:842.682 JLINK_IsHalted()
T31E0 000:843.621 - 0.937ms returns FALSE
T31E0 000:843.716 JLINK_HasError()
T31E0 000:846.266 JLINK_IsHalted()
T31E0 000:850.844 - 4.577ms returns TRUE
T31E0 000:850.917 JLINK_ReadReg(R15 (PC))
T31E0 000:850.962 - 0.045ms returns 0x10000000
T31E0 000:850.993 JLINK_ClrBPEx(BPHandle = 0x00000006)
T31E0 000:851.017 - 0.024ms returns 0x00
T31E0 000:851.041 JLINK_ReadReg(R0)
T31E0 000:851.197 - 0.156ms returns 0x00000000
T31E0 000:852.306 JLINK_WriteMem(0x10000204, 0x1FC Bytes, ...)
T31E0 000:852.356   Data:  60 80 02 E0 20 88 A8 43 20 80 BD E8 F0 81 2D E9 ...
T31E0 000:852.399   CPU_WriteMem(508 bytes @ 0x10000204)
T31E0 000:856.143 - 3.836ms returns 0x1FC
T31E0 000:856.205 JLINK_WriteMem(0x10000400, 0x204 Bytes, ...)
T31E0 000:856.223   Data:  07 F7 3E 43 42 F8 20 60 F0 BD 30 B5 0B 46 1F 49 ...
T31E0 000:856.259   CPU_WriteMem(516 bytes @ 0x10000400)
T31E0 000:860.101 - 3.894ms returns 0x204
T31E0 000:860.184 JLINK_HasError()
T31E0 000:860.213 JLINK_WriteReg(R0, 0x00000800)
T31E0 000:860.242 - 0.029ms returns 0
T31E0 000:860.266 JLINK_WriteReg(R1, 0x00000400)
T31E0 000:860.288 - 0.022ms returns 0
T31E0 000:860.312 JLINK_WriteReg(R2, 0x10000204)
T31E0 000:860.340 - 0.028ms returns 0
T31E0 000:860.371 JLINK_WriteReg(R3, 0x00000000)
T31E0 000:860.398 - 0.028ms returns 0
T31E0 000:860.422 JLINK_WriteReg(R4, 0x00000000)
T31E0 000:860.444 - 0.021ms returns 0
T31E0 000:860.468 JLINK_WriteReg(R5, 0x00000000)
T31E0 000:860.489 - 0.021ms returns 0
T31E0 000:860.512 JLINK_WriteReg(R6, 0x00000000)
T31E0 000:860.533 - 0.021ms returns 0
T31E0 000:860.557 JLINK_WriteReg(R7, 0x00000000)
T31E0 000:860.578 - 0.021ms returns 0
T31E0 000:860.603 JLINK_WriteReg(R8, 0x00000000)
T31E0 000:860.627 - 0.023ms returns 0
T31E0 000:860.652 JLINK_WriteReg(R9, 0x100001DC)
T31E0 000:860.675 - 0.023ms returns 0
T31E0 000:860.700 JLINK_WriteReg(R10, 0x00000000)
T31E0 000:860.724 - 0.023ms returns 0
T31E0 000:860.749 JLINK_WriteReg(R11, 0x00000000)
T31E0 000:860.837 - 0.087ms returns 0
T31E0 000:860.869 JLINK_WriteReg(R12, 0x00000000)
T31E0 000:860.893 - 0.024ms returns 0
T31E0 000:860.919 JLINK_WriteReg(R13 (SP), 0x10000800)
T31E0 000:860.944 - 0.025ms returns 0
T31E0 000:860.970 JLINK_WriteReg(R14, 0x10000001)
T31E0 000:860.994 - 0.024ms returns 0
T31E0 000:861.034 JLINK_WriteReg(R15 (PC), 0x10000156)
T31E0 000:861.070 - 0.037ms returns 0
T31E0 000:861.107 JLINK_WriteReg(XPSR, 0x01000000)
T31E0 000:861.130 - 0.023ms returns 0
T31E0 000:861.156 JLINK_WriteReg(MSP, 0x10000800)
T31E0 000:861.181 - 0.024ms returns 0
T31E0 000:861.204 JLINK_WriteReg(PSP, 0x10000800)
T31E0 000:861.225 - 0.021ms returns 0
T31E0 000:861.248 JLINK_WriteReg(CFBP, 0x00000000)
T31E0 000:861.269 - 0.021ms returns 0
T31E0 000:861.295 JLINK_SetBPEx(Addr = 0x10000000, Type = 0xFFFFFFF2)
T31E0 000:861.320 - 0.026ms returns 0x00000007
T31E0 000:861.344 JLINK_Go()
T31E0 000:861.382   CPU_ReadMem(4 bytes @ 0xE0001000)
T31E0 000:864.822 - 3.476ms
T31E0 000:864.937 JLINK_IsHalted()
T31E0 000:865.601 - 0.663ms returns FALSE
T31E0 000:865.670 JLINK_HasError()
T31E0 000:867.861 JLINK_IsHalted()
T31E0 000:869.049 - 1.187ms returns FALSE
T31E0 000:869.141 JLINK_HasError()
T31E0 000:871.041 JLINK_IsHalted()
T31E0 000:873.766 - 2.722ms returns TRUE
T31E0 000:873.870 JLINK_ReadReg(R15 (PC))
T31E0 000:873.900 - 0.030ms returns 0x10000000
T31E0 000:873.928 JLINK_ClrBPEx(BPHandle = 0x00000007)
T31E0 000:873.952 - 0.025ms returns 0x00
T31E0 000:873.979 JLINK_ReadReg(R0)
T31E0 000:874.003 - 0.024ms returns 0x00000000
T31E0 000:875.311 JLINK_WriteMem(0x10000204, 0x1FC Bytes, ...)
T31E0 000:875.370   Data:  BA 48 85 42 00 D1 03 E0 DD 21 B9 A0 01 F0 20 FE ...
T31E0 000:875.419   CPU_WriteMem(508 bytes @ 0x10000204)
T31E0 000:879.503 - 4.191ms returns 0x1FC
T31E0 000:879.566 JLINK_WriteMem(0x10000400, 0x204 Bytes, ...)
T31E0 000:879.586   Data:  3A 48 84 42 05 D1 00 21 4F F4 80 00 FF F7 31 FA ...
T31E0 000:879.624   CPU_WriteMem(516 bytes @ 0x10000400)
T31E0 000:884.718 - 5.150ms returns 0x204
T31E0 000:884.927 JLINK_HasError()
T31E0 000:884.960 JLINK_WriteReg(R0, 0x00000C00)
T31E0 000:884.992 - 0.032ms returns 0
T31E0 000:885.019 JLINK_WriteReg(R1, 0x00000400)
T31E0 000:885.051 - 0.031ms returns 0
T31E0 000:885.084 JLINK_WriteReg(R2, 0x10000204)
T31E0 000:885.112 - 0.027ms returns 0
T31E0 000:885.137 JLINK_WriteReg(R3, 0x00000000)
T31E0 000:885.161 - 0.023ms returns 0
T31E0 000:885.185 JLINK_WriteReg(R4, 0x00000000)
T31E0 000:885.207 - 0.021ms returns 0
T31E0 000:885.230 JLINK_WriteReg(R5, 0x00000000)
T31E0 000:885.271 - 0.041ms returns 0
T31E0 000:885.295 JLINK_WriteReg(R6, 0x00000000)
T31E0 000:885.317 - 0.021ms returns 0
T31E0 000:885.340 JLINK_WriteReg(R7, 0x00000000)
T31E0 000:885.361 - 0.021ms returns 0
T31E0 000:885.385 JLINK_WriteReg(R8, 0x00000000)
T31E0 000:885.406 - 0.021ms returns 0
T31E0 000:885.429 JLINK_WriteReg(R9, 0x100001DC)
T31E0 000:885.450 - 0.021ms returns 0
T31E0 000:885.474 JLINK_WriteReg(R10, 0x00000000)
T31E0 000:885.495 - 0.022ms returns 0
T31E0 000:885.519 JLINK_WriteReg(R11, 0x00000000)
T31E0 000:885.540 - 0.021ms returns 0
T31E0 000:885.564 JLINK_WriteReg(R12, 0x00000000)
T31E0 000:885.585 - 0.021ms returns 0
T31E0 000:885.608 JLINK_WriteReg(R13 (SP), 0x10000800)
T31E0 000:885.630 - 0.022ms returns 0
T31E0 000:885.654 JLINK_WriteReg(R14, 0x10000001)
T31E0 000:885.675 - 0.021ms returns 0
T31E0 000:885.699 JLINK_WriteReg(R15 (PC), 0x10000156)
T31E0 000:885.720 - 0.022ms returns 0
T31E0 000:885.744 JLINK_WriteReg(XPSR, 0x01000000)
T31E0 000:885.766 - 0.022ms returns 0
T31E0 000:885.789 JLINK_WriteReg(MSP, 0x10000800)
T31E0 000:885.810 - 0.021ms returns 0
T31E0 000:885.834 JLINK_WriteReg(PSP, 0x10000800)
T31E0 000:885.855 - 0.021ms returns 0
T31E0 000:885.878 JLINK_WriteReg(CFBP, 0x00000000)
T31E0 000:885.900 - 0.021ms returns 0
T31E0 000:885.925 JLINK_SetBPEx(Addr = 0x10000000, Type = 0xFFFFFFF2)
T31E0 000:885.950 - 0.025ms returns 0x00000008
T31E0 000:885.973 JLINK_Go()
T31E0 000:886.011   CPU_ReadMem(4 bytes @ 0xE0001000)
T31E0 000:889.458 - 3.483ms
T31E0 000:889.533 JLINK_IsHalted()
T31E0 000:890.249 - 0.714ms returns FALSE
T31E0 000:890.324 JLINK_HasError()
T31E0 000:891.605 JLINK_IsHalted()
T31E0 000:892.361 - 0.754ms returns FALSE
T31E0 000:892.448 JLINK_HasError()
T31E0 000:894.604 JLINK_IsHalted()
T31E0 000:897.693 - 3.087ms returns TRUE
T31E0 000:897.805 JLINK_ReadReg(R15 (PC))
T31E0 000:897.848 - 0.042ms returns 0x10000000
T31E0 000:897.888 JLINK_ClrBPEx(BPHandle = 0x00000008)
T31E0 000:897.919 - 0.031ms returns 0x00
T31E0 000:897.951 JLINK_ReadReg(R0)
T31E0 000:897.980 - 0.028ms returns 0x00000000
T31E0 000:901.793 JLINK_WriteMem(0x10000204, 0x1FC Bytes, ...)
T31E0 000:901.869   Data:  42 48 84 42 00 D1 05 E0 40 F2 07 21 AF F2 20 10 ...
T31E0 000:901.922   CPU_WriteMem(508 bytes @ 0x10000204)
T31E0 000:905.691 - 3.898ms returns 0x1FC
T31E0 000:905.755 JLINK_WriteMem(0x10000400, 0x204 Bytes, ...)
T31E0 000:905.774   Data:  84 42 02 D0 BD 48 84 42 00 D1 03 E0 A8 21 BC A0 ...
T31E0 000:905.812   CPU_WriteMem(516 bytes @ 0x10000400)
T31E0 000:909.741 - 3.984ms returns 0x204
T31E0 000:909.815 JLINK_HasError()
T31E0 000:909.844 JLINK_WriteReg(R0, 0x00001000)
T31E0 000:909.874 - 0.029ms returns 0
T31E0 000:909.898 JLINK_WriteReg(R1, 0x00000400)
T31E0 000:909.920 - 0.022ms returns 0
T31E0 000:909.943 JLINK_WriteReg(R2, 0x10000204)
T31E0 000:909.965 - 0.022ms returns 0
T31E0 000:909.997 JLINK_WriteReg(R3, 0x00000000)
T31E0 000:910.025 - 0.028ms returns 0
T31E0 000:910.053 JLINK_WriteReg(R4, 0x00000000)
T31E0 000:910.075 - 0.022ms returns 0
T31E0 000:910.098 JLINK_WriteReg(R5, 0x00000000)
T31E0 000:910.119 - 0.021ms returns 0
T31E0 000:910.143 JLINK_WriteReg(R6, 0x00000000)
T31E0 000:910.164 - 0.021ms returns 0
T31E0 000:910.187 JLINK_WriteReg(R7, 0x00000000)
T31E0 000:910.209 - 0.021ms returns 0
T31E0 000:910.232 JLINK_WriteReg(R8, 0x00000000)
T31E0 000:910.253 - 0.021ms returns 0
T31E0 000:910.276 JLINK_WriteReg(R9, 0x100001DC)
T31E0 000:910.298 - 0.021ms returns 0
T31E0 000:910.321 JLINK_WriteReg(R10, 0x00000000)
T31E0 000:910.342 - 0.021ms returns 0
T31E0 000:910.369 JLINK_WriteReg(R11, 0x00000000)
T31E0 000:910.392 - 0.023ms returns 0
T31E0 000:910.418 JLINK_WriteReg(R12, 0x00000000)
T31E0 000:910.466 - 0.047ms returns 0
T31E0 000:910.493 JLINK_WriteReg(R13 (SP), 0x10000800)
T31E0 000:910.518 - 0.025ms returns 0
T31E0 000:910.544 JLINK_WriteReg(R14, 0x10000001)
T31E0 000:910.567 - 0.023ms returns 0
T31E0 000:910.593 JLINK_WriteReg(R15 (PC), 0x10000156)
T31E0 000:910.617 - 0.024ms returns 0
T31E0 000:910.642 JLINK_WriteReg(XPSR, 0x01000000)
T31E0 000:910.666 - 0.023ms returns 0
T31E0 000:910.691 JLINK_WriteReg(MSP, 0x10000800)
T31E0 000:910.715 - 0.023ms returns 0
T31E0 000:910.741 JLINK_WriteReg(PSP, 0x10000800)
T31E0 000:910.764 - 0.023ms returns 0
T31E0 000:910.789 JLINK_WriteReg(CFBP, 0x00000000)
T31E0 000:910.812 - 0.023ms returns 0
T31E0 000:910.840 JLINK_SetBPEx(Addr = 0x10000000, Type = 0xFFFFFFF2)
T31E0 000:910.867 - 0.028ms returns 0x00000009
T31E0 000:910.893 JLINK_Go()
T31E0 000:910.933   CPU_ReadMem(4 bytes @ 0xE0001000)
T31E0 000:914.617 - 3.722ms
T31E0 000:914.681 JLINK_IsHalted()
T31E0 000:915.339 - 0.656ms returns FALSE
T31E0 000:915.473 JLINK_HasError()
T31E0 000:917.656 JLINK_IsHalted()
T31E0 000:918.579 - 0.922ms returns FALSE
T31E0 000:918.647 JLINK_HasError()
T31E0 000:920.651 JLINK_IsHalted()
T31E0 000:923.213 - 2.561ms returns TRUE
T31E0 000:923.288 JLINK_ReadReg(R15 (PC))
T31E0 000:923.314 - 0.025ms returns 0x10000000
T31E0 000:923.337 JLINK_ClrBPEx(BPHandle = 0x00000009)
T31E0 000:923.359 - 0.021ms returns 0x00
T31E0 000:923.381 JLINK_ReadReg(R0)
T31E0 000:923.401 - 0.020ms returns 0x00000000
T31E0 000:924.502 JLINK_WriteMem(0x10000204, 0x1FC Bytes, ...)
T31E0 000:924.561   Data:  30 46 FF F7 9A FF 60 68 80 1C 60 60 16 E0 55 B9 ...
T31E0 000:924.610   CPU_WriteMem(508 bytes @ 0x10000204)
T31E0 000:928.406 - 3.904ms returns 0x1FC
T31E0 000:928.475 JLINK_WriteMem(0x10000400, 0x204 Bytes, ...)
T31E0 000:928.495   Data:  76 48 85 42 02 D0 76 48 85 42 00 D1 05 E0 4F F4 ...
T31E0 000:928.537   CPU_WriteMem(516 bytes @ 0x10000400)
T31E0 000:932.411 - 3.934ms returns 0x204
T31E0 000:932.777 JLINK_HasError()
T31E0 000:932.807 JLINK_WriteReg(R0, 0x00001400)
T31E0 000:932.836 - 0.029ms returns 0
T31E0 000:932.860 JLINK_WriteReg(R1, 0x00000400)
T31E0 000:932.882 - 0.022ms returns 0
T31E0 000:932.906 JLINK_WriteReg(R2, 0x10000204)
T31E0 000:932.935 - 0.029ms returns 0
T31E0 000:932.959 JLINK_WriteReg(R3, 0x00000000)
T31E0 000:934.329 - 1.368ms returns 0
T31E0 000:934.509 JLINK_WriteReg(R4, 0x00000000)
T31E0 000:934.535 - 0.026ms returns 0
T31E0 000:934.559 JLINK_WriteReg(R5, 0x00000000)
T31E0 000:934.580 - 0.022ms returns 0
T31E0 000:934.604 JLINK_WriteReg(R6, 0x00000000)
T31E0 000:934.626 - 0.021ms returns 0
T31E0 000:934.649 JLINK_WriteReg(R7, 0x00000000)
T31E0 000:934.670 - 0.021ms returns 0
T31E0 000:934.693 JLINK_WriteReg(R8, 0x00000000)
T31E0 000:934.715 - 0.021ms returns 0
T31E0 000:934.738 JLINK_WriteReg(R9, 0x100001DC)
T31E0 000:934.759 - 0.021ms returns 0
T31E0 000:934.783 JLINK_WriteReg(R10, 0x00000000)
T31E0 000:934.805 - 0.022ms returns 0
T31E0 000:934.828 JLINK_WriteReg(R11, 0x00000000)
T31E0 000:934.849 - 0.021ms returns 0
T31E0 000:934.879 JLINK_WriteReg(R12, 0x00000000)
T31E0 000:934.908 - 0.028ms returns 0
T31E0 000:934.934 JLINK_WriteReg(R13 (SP), 0x10000800)
T31E0 000:934.957 - 0.023ms returns 0
T31E0 000:934.981 JLINK_WriteReg(R14, 0x10000001)
T31E0 000:935.002 - 0.021ms returns 0
T31E0 000:935.026 JLINK_WriteReg(R15 (PC), 0x10000156)
T31E0 000:935.047 - 0.021ms returns 0
T31E0 000:935.087 JLINK_WriteReg(XPSR, 0x01000000)
T31E0 000:935.110 - 0.023ms returns 0
T31E0 000:935.134 JLINK_WriteReg(MSP, 0x10000800)
T31E0 000:935.155 - 0.021ms returns 0
T31E0 000:935.178 JLINK_WriteReg(PSP, 0x10000800)
T31E0 000:935.198 - 0.019ms returns 0
T31E0 000:935.219 JLINK_WriteReg(CFBP, 0x00000000)
T31E0 000:935.239 - 0.020ms returns 0
T31E0 000:935.263 JLINK_SetBPEx(Addr = 0x10000000, Type = 0xFFFFFFF2)
T31E0 000:935.287 - 0.025ms returns 0x0000000A
T31E0 000:935.309 JLINK_Go()
T31E0 000:935.346   CPU_ReadMem(4 bytes @ 0xE0001000)
T31E0 000:939.267 - 3.956ms
T31E0 000:939.333 JLINK_IsHalted()
T31E0 000:939.872 - 0.538ms returns FALSE
T31E0 000:939.931 JLINK_HasError()
T31E0 000:943.600 JLINK_IsHalted()
T31E0 000:944.146 - 0.545ms returns FALSE
T31E0 000:944.205 JLINK_HasError()
T31E0 000:946.209 JLINK_IsHalted()
T31E0 000:948.665 - 2.454ms returns TRUE
T31E0 000:948.738 JLINK_ReadReg(R15 (PC))
T31E0 000:948.763 - 0.025ms returns 0x10000000
T31E0 000:948.787 JLINK_ClrBPEx(BPHandle = 0x0000000A)
T31E0 000:948.808 - 0.021ms returns 0x00
T31E0 000:948.830 JLINK_ReadReg(R0)
T31E0 000:948.850 - 0.020ms returns 0x00000000
T31E0 000:950.135 JLINK_WriteMem(0x10000204, 0x1FC Bytes, ...)
T31E0 000:950.198   Data:  4F F0 FF 30 F1 E7 01 46 20 20 08 60 08 20 88 61 ...
T31E0 000:950.255   CPU_WriteMem(508 bytes @ 0x10000204)
T31E0 000:954.225 - 4.089ms returns 0x1FC
T31E0 000:954.294 JLINK_WriteMem(0x10000400, 0x204 Bytes, ...)
T31E0 000:954.315   Data:  AD 71 73 A0 00 F0 26 FF 01 2D 02 D1 40 20 20 60 ...
T31E0 000:954.356   CPU_WriteMem(516 bytes @ 0x10000400)
T31E0 000:958.448 - 4.152ms returns 0x204
T31E0 000:958.541 JLINK_HasError()
T31E0 000:958.572 JLINK_WriteReg(R0, 0x00001800)
T31E0 000:958.604 - 0.032ms returns 0
T31E0 000:958.631 JLINK_WriteReg(R1, 0x00000400)
T31E0 000:958.655 - 0.024ms returns 0
T31E0 000:958.681 JLINK_WriteReg(R2, 0x10000204)
T31E0 000:958.704 - 0.023ms returns 0
T31E0 000:958.730 JLINK_WriteReg(R3, 0x00000000)
T31E0 000:958.753 - 0.023ms returns 0
T31E0 000:958.778 JLINK_WriteReg(R4, 0x00000000)
T31E0 000:958.801 - 0.023ms returns 0
T31E0 000:958.827 JLINK_WriteReg(R5, 0x00000000)
T31E0 000:958.850 - 0.023ms returns 0
T31E0 000:958.880 JLINK_WriteReg(R6, 0x00000000)
T31E0 000:958.911 - 0.030ms returns 0
T31E0 000:958.945 JLINK_WriteReg(R7, 0x00000000)
T31E0 000:958.969 - 0.024ms returns 0
T31E0 000:958.994 JLINK_WriteReg(R8, 0x00000000)
T31E0 000:959.018 - 0.023ms returns 0
T31E0 000:959.043 JLINK_WriteReg(R9, 0x100001DC)
T31E0 000:959.086 - 0.043ms returns 0
T31E0 000:959.119 JLINK_WriteReg(R10, 0x00000000)
T31E0 000:959.145 - 0.025ms returns 0
T31E0 000:959.173 JLINK_WriteReg(R11, 0x00000000)
T31E0 000:959.199 - 0.026ms returns 0
T31E0 000:959.227 JLINK_WriteReg(R12, 0x00000000)
T31E0 000:959.253 - 0.025ms returns 0
T31E0 000:959.293 JLINK_WriteReg(R13 (SP), 0x10000800)
T31E0 000:959.321 - 0.027ms returns 0
T31E0 000:959.348 JLINK_WriteReg(R14, 0x10000001)
T31E0 000:959.374 - 0.025ms returns 0
T31E0 000:959.402 JLINK_WriteReg(R15 (PC), 0x10000156)
T31E0 000:959.428 - 0.026ms returns 0
T31E0 000:959.456 JLINK_WriteReg(XPSR, 0x01000000)
T31E0 000:959.482 - 0.025ms returns 0
T31E0 000:959.510 JLINK_WriteReg(MSP, 0x10000800)
T31E0 000:959.535 - 0.025ms returns 0
T31E0 000:959.564 JLINK_WriteReg(PSP, 0x10000800)
T31E0 000:959.589 - 0.026ms returns 0
T31E0 000:959.618 JLINK_WriteReg(CFBP, 0x00000000)
T31E0 000:959.643 - 0.025ms returns 0
T31E0 000:959.673 JLINK_SetBPEx(Addr = 0x10000000, Type = 0xFFFFFFF2)
T31E0 000:959.703 - 0.030ms returns 0x0000000B
T31E0 000:959.731 JLINK_Go()
